Circuit: * C:\Users\RJ\Documents\LTspiceXVII\Question3HW3.asc

Warning: Multiple definitions of model "cd4007ube" Type: Mos1
Warning: Multiple definitions of model "cd4007" Type: Mos1
Ignoring BSIM parameter XL
Ignoring BSIM parameter XW
Warning: Pd = 0 is less than W.
Warning: Ps = 0 is less than W.
Direct Newton iteration for .op point succeeded.
Semiconductor Device Operating Points:
                        --- BSIM3 MOSFETS ---
Name:        m1
Model:    cmosn_0.5
Id:        5.37e-04
Vgs:       5.00e+00
Vds:       5.00e+00
Vbs:       0.00e+00
Vth:       7.33e-01
Vdsat:     2.77e+00
Gm:        2.10e-04
Gds:       1.90e-06
Gmb        5.22e-05
Cbd:       0.00e+00
Cbs:       0.00e+00
Cgsov:     1.05e-15
Cgdov:     1.05e-15
Cgbov:     4.85e-15
dQgdVgb:   4.91e-14
dQgdVdb:  -1.05e-15
dQgdVsb:  -4.50e-14
dQddVgb:  -1.89e-14
dQddVdb:   1.05e-15
dQddVsb:   2.51e-14
dQbdVgb:  -1.12e-14
dQbdVdb:  -2.37e-18
dQbdVsb:  -6.25e-15



Date: Mon Jan 25 10:19:37 2021
Total elapsed time: 0.965 seconds.

tnom = 27
temp = 27
method = trap
totiter = 7
traniter = 0
tranpoints = 0
accept = 0
rejected = 0
matrix size = 5
fillins = 0
solver = Normal
Matrix Compiler1: 114 bytes object code size
Matrix Compiler2: 301 bytes object code size
