Circuit: * C:\Users\RJ\Documents\LTspiceXVII\rtl_cmos.asc

Warning: Multiple definitions of model "cd4007ube" Type: Mos1
Warning: Multiple definitions of model "cd4007" Type: Mos1
Ignoring BSIM parameter XL
Ignoring BSIM parameter XW
Ignoring BSIM parameter XL
Ignoring BSIM parameter XW
Warning: Pd = 0 is less than W.
Warning: Ps = 0 is less than W.
Warning: Pd = 0 is less than W.
Warning: Ps = 0 is less than W.
Direct Newton iteration for .op point succeeded.
Semiconductor Device Operating Points:
                        --- BSIM3 MOSFETS ---
Name:        m3          m2          m1
Model:    cmosn_0.5   cmosn_0.5   cmosp_0.5
Id:        5.37e-04    5.01e-12   -5.01e-12
Vgs:       5.00e+00    5.00e+00   -5.37e-04
Vds:       5.00e+00    1.58e-08   -5.00e+00
Vbs:       0.00e+00    0.00e+00    0.00e+00
Vth:       7.33e-01    7.34e-01   -9.86e-01
Vdsat:     2.77e+00    2.77e+00   -3.96e-02
Gm:        2.10e-04    7.37e-13    2.61e-17
Gds:       1.90e-06    3.16e-04    3.65e-20
Gmb        5.22e-05    5.73e-13    1.30e-17
Cbd:       0.00e+00    0.00e+00    0.00e+00
Cbs:       0.00e+00    0.00e+00    0.00e+00
Cgsov:     1.05e-15    1.05e-15    1.35e-15
Cgdov:     1.05e-15    1.05e-15    1.35e-15
Cgbov:     4.85e-15    4.85e-15    4.79e-15
dQgdVgb:   4.91e-14    6.06e-14    3.00e-14
dQgdVdb:  -1.05e-15   -2.77e-14   -1.35e-15
dQgdVsb:  -4.50e-14   -2.54e-14   -1.35e-15
dQddVgb:  -1.89e-14   -2.79e-14   -1.35e-15
dQddVdb:   1.05e-15    2.17e-14    1.35e-15
dQddVsb:   2.51e-14    1.69e-14    2.86e-25
dQbdVgb:  -1.12e-14   -4.87e-15   -2.73e-14
dQbdVdb:  -2.37e-18   -1.48e-14   -3.69e-32
dQbdVsb:  -6.25e-15   -9.50e-15    7.50e-19



Date: Mon Jan 25 10:51:33 2021
Total elapsed time: 0.688 seconds.

tnom = 27
temp = 27
method = trap
totiter = 20
traniter = 0
tranpoints = 0
accept = 0
rejected = 0
matrix size = 6
fillins = 0
solver = Normal
Matrix Compiler1: 182 bytes object code size
Matrix Compiler2: 408 bytes object code size
